Time [s], Analyzer Name, Decoded Protocol Result
1.291998125000000,Simple Parallel,'0'
1.292515875000000,Simple Parallel,'1'
1.293033500000000,Simple Parallel,'0'
1.293551250000000,Simple Parallel,'1'
1.294069000000000,Simple Parallel,'0'
1.294586625000000,Simple Parallel,'0'
1.295104250000000,Simple Parallel,'0'
1.295622375000000,Simple Parallel,'0'
1.296139625000000,Simple Parallel,'0'
1.296657375000000,Simple Parallel,'0'
1.297175125000000,Simple Parallel,'0'
1.297692750000000,Simple Parallel,'0'
1.298210500000000,Simple Parallel,'0'
1.298728125000000,Simple Parallel,'0'
1.299245750000000,Simple Parallel,'1'
1.299763875000000,Simple Parallel,'1'
1.300281250000000,Simple Parallel,'0'
1.300798875000000,Simple Parallel,'0'
1.301316500000000,Simple Parallel,'0'
1.301834375000000,Simple Parallel,'1'
1.302351875000000,Simple Parallel,'0'
1.302869625000000,Simple Parallel,'0'
1.303387250000000,Simple Parallel,'1'
1.303905375000000,Simple Parallel,'0'
1.304422500000000,Simple Parallel,'0'
1.304940250000000,Simple Parallel,'1'
1.305457875000000,Simple Parallel,'1'
1.305975625000000,Simple Parallel,'0'
1.306493250000000,Simple Parallel,'0'
1.307011000000000,Simple Parallel,'1'
1.307528625000000,Simple Parallel,'0'
1.308046750000000,Simple Parallel,'1'
1.308564000000000,Simple Parallel,'0'
1.309089625000000,Simple Parallel,'0'
1.309599250000000,Simple Parallel,'0'
1.310116875000000,Simple Parallel,'0'
1.310634625000000,Simple Parallel,'1'
1.311152250000000,Simple Parallel,'1'
1.311670000000000,Simple Parallel,'0'
1.312188125000000,Simple Parallel,'1'
1.387320625000000,Simple Parallel,'0'
1.387838375000000,Simple Parallel,'1'
1.388356125000000,Simple Parallel,'0'
1.388873750000000,Simple Parallel,'0'
1.389391500000000,Simple Parallel,'0'
1.389909375000000,Simple Parallel,'0'
1.390427000000000,Simple Parallel,'1'
1.390945125000000,Simple Parallel,'0'
1.391462500000000,Simple Parallel,'0'
1.391980250000000,Simple Parallel,'0'
1.392497875000000,Simple Parallel,'0'
1.393015625000000,Simple Parallel,'1'
1.393533500000000,Simple Parallel,'0'
1.394051250000000,Simple Parallel,'0'
1.394569000000000,Simple Parallel,'1'
1.395087250000000,Simple Parallel,'0'
1.395604500000000,Simple Parallel,'1'
1.396122250000000,Simple Parallel,'1'
1.396640000000000,Simple Parallel,'0'
1.397157625000000,Simple Parallel,'0'
1.397675375000000,Simple Parallel,'0'
1.398193125000000,Simple Parallel,'0'
1.398710750000000,Simple Parallel,'0'
1.399229000000000,Simple Parallel,'1'
1.399746375000000,Simple Parallel,'0'
1.400264125000000,Simple Parallel,'0'
1.400781875000000,Simple Parallel,'0'
1.401299625000000,Simple Parallel,'1'
1.401817375000000,Simple Parallel,'0'
1.402335125000000,Simple Parallel,'1'
1.402853000000000,Simple Parallel,'0'
1.403371125000000,Simple Parallel,'1'
1.403888375000000,Simple Parallel,'0'
1.404412250000000,Simple Parallel,'0'
1.404923875000000,Simple Parallel,'0'
1.405441625000000,Simple Parallel,'0'
1.405959375000000,Simple Parallel,'1'
1.406477000000000,Simple Parallel,'1'
1.406994750000000,Simple Parallel,'0'
1.407512875000000,Simple Parallel,'1'
1.486618250000000,Simple Parallel,'0'
1.487136250000000,Simple Parallel,'1'
1.487653750000000,Simple Parallel,'0'
1.488171625000000,Simple Parallel,'0'
1.488689375000000,Simple Parallel,'0'
1.489207125000000,Simple Parallel,'0'
1.489724875000000,Simple Parallel,'0'
1.490243125000000,Simple Parallel,'1'
1.490760375000000,Simple Parallel,'0'
1.491278250000000,Simple Parallel,'0'
1.491796000000000,Simple Parallel,'0'
1.492313750000000,Simple Parallel,'1'
1.492831500000000,Simple Parallel,'0'
1.493349250000000,Simple Parallel,'0'
1.493867000000000,Simple Parallel,'1'
1.494385250000000,Simple Parallel,'0'
1.494902500000000,Simple Parallel,'1'
1.495420250000000,Simple Parallel,'1'
1.495938000000000,Simple Parallel,'1'
1.496455875000000,Simple Parallel,'1'
1.496973625000000,Simple Parallel,'0'
1.497491375000000,Simple Parallel,'1'
1.498009125000000,Simple Parallel,'0'
1.498527250000000,Simple Parallel,'0'
1.499044625000000,Simple Parallel,'0'
1.499562375000000,Simple Parallel,'1'
1.500080125000000,Simple Parallel,'0'
1.500597875000000,Simple Parallel,'0'
1.501115625000000,Simple Parallel,'0'
1.501633375000000,Simple Parallel,'1'
1.502151125000000,Simple Parallel,'1'
1.502669375000000,Simple Parallel,'1'
1.503186625000000,Simple Parallel,'0'
1.503712500000000,Simple Parallel,'0'
1.504222250000000,Simple Parallel,'0'
1.504739875000000,Simple Parallel,'0'
1.505257625000000,Simple Parallel,'1'
1.505775375000000,Simple Parallel,'1'
1.506293125000000,Simple Parallel,'0'
1.506811375000000,Simple Parallel,'1'
3.277920750000000,Simple Parallel,'0'
3.278438375000000,Simple Parallel,'1'
3.278956125000000,Simple Parallel,'0'
3.279473750000000,Simple Parallel,'1'
3.279991375000000,Simple Parallel,'0'
3.280509125000000,Simple Parallel,'0'
3.281026875000000,Simple Parallel,'0'
3.281545000000000,Simple Parallel,'0'
3.282062375000000,Simple Parallel,'0'
3.282580000000000,Simple Parallel,'0'
3.283099750000000,Simple Parallel,'0'
3.283615500000000,Simple Parallel,'0'
3.284133250000000,Simple Parallel,'0'
3.284650875000000,Simple Parallel,'0'
3.285168625000000,Simple Parallel,'1'
3.285686750000000,Simple Parallel,'1'
3.286204000000000,Simple Parallel,'0'
3.286721750000000,Simple Parallel,'0'
3.287239375000000,Simple Parallel,'0'
3.287757125000000,Simple Parallel,'1'
3.288274875000000,Simple Parallel,'0'
3.288792625000000,Simple Parallel,'0'
3.289310375000000,Simple Parallel,'1'
3.289828500000000,Simple Parallel,'0'
3.290345750000000,Simple Parallel,'0'
3.290863500000000,Simple Parallel,'1'
3.291381125000000,Simple Parallel,'1'
3.291898875000000,Simple Parallel,'0'
3.292416625000000,Simple Parallel,'0'
3.292934250000000,Simple Parallel,'1'
3.293452000000000,Simple Parallel,'0'
3.293970125000000,Simple Parallel,'1'
3.294487375000000,Simple Parallel,'0'
3.295015125000000,Simple Parallel,'0'
3.295522750000000,Simple Parallel,'0'
3.296040500000000,Simple Parallel,'0'
3.296558125000000,Simple Parallel,'1'
3.297075750000000,Simple Parallel,'1'
3.297593500000000,Simple Parallel,'0'
3.298111750000000,Simple Parallel,'1'
3.373244875000000,Simple Parallel,'0'
3.373762500000000,Simple Parallel,'1'
3.374280250000000,Simple Parallel,'0'
3.374797875000000,Simple Parallel,'0'
3.375315500000000,Simple Parallel,'0'
3.375833250000000,Simple Parallel,'0'
3.376351000000000,Simple Parallel,'1'
3.376869125000000,Simple Parallel,'0'
3.377386375000000,Simple Parallel,'0'
3.377904000000000,Simple Parallel,'0'
3.378421750000000,Simple Parallel,'0'
3.378939375000000,Simple Parallel,'1'
3.379457125000000,Simple Parallel,'0'
3.379974875000000,Simple Parallel,'0'
3.380492500000000,Simple Parallel,'1'
3.381010625000000,Simple Parallel,'0'
3.381527875000000,Simple Parallel,'1'
3.382045625000000,Simple Parallel,'1'
3.382563250000000,Simple Parallel,'0'
3.383081000000000,Simple Parallel,'0'
3.383598875000000,Simple Parallel,'0'
3.384116375000000,Simple Parallel,'0'
3.384634000000000,Simple Parallel,'0'
3.385152125000000,Simple Parallel,'1'
3.385669375000000,Simple Parallel,'0'
3.386187125000000,Simple Parallel,'0'
3.386704750000000,Simple Parallel,'0'
3.387222375000000,Simple Parallel,'1'
3.387740125000000,Simple Parallel,'0'
3.388257875000000,Simple Parallel,'1'
3.388775625000000,Simple Parallel,'0'
3.389293750000000,Simple Parallel,'1'
3.389811125000000,Simple Parallel,'0'
3.390334750000000,Simple Parallel,'0'
3.390846500000000,Simple Parallel,'0'
3.391364250000000,Simple Parallel,'0'
3.391881875000000,Simple Parallel,'1'
3.392399625000000,Simple Parallel,'1'
3.392917375000000,Simple Parallel,'0'
3.393435500000000,Simple Parallel,'1'
3.472535125000000,Simple Parallel,'0'
3.473052875000000,Simple Parallel,'1'
3.473570500000000,Simple Parallel,'0'
3.474088250000000,Simple Parallel,'0'
3.474606000000000,Simple Parallel,'0'
3.475123750000000,Simple Parallel,'0'
3.475641375000000,Simple Parallel,'0'
3.476159500000000,Simple Parallel,'1'
3.476676750000000,Simple Parallel,'0'
3.477194500000000,Simple Parallel,'0'
3.477712125000000,Simple Parallel,'0'
3.478229875000000,Simple Parallel,'1'
3.478747500000000,Simple Parallel,'0'
3.479265375000000,Simple Parallel,'0'
3.479783000000000,Simple Parallel,'1'
3.480301250000000,Simple Parallel,'0'
3.480818500000000,Simple Parallel,'1'
3.481336250000000,Simple Parallel,'1'
3.481854000000000,Simple Parallel,'1'
3.482371750000000,Simple Parallel,'0'
3.482889375000000,Simple Parallel,'1'
3.483407125000000,Simple Parallel,'0'
3.483924875000000,Simple Parallel,'1'
3.484443000000000,Simple Parallel,'0'
3.484960250000000,Simple Parallel,'0'
3.485478000000000,Simple Parallel,'0'
3.485995750000000,Simple Parallel,'1'
3.486513375000000,Simple Parallel,'1'
3.487031250000000,Simple Parallel,'1'
3.487549000000000,Simple Parallel,'1'
3.488066750000000,Simple Parallel,'0'
3.488584875000000,Simple Parallel,'1'
3.489102125000000,Simple Parallel,'0'
3.489625875000000,Simple Parallel,'0'
3.490137625000000,Simple Parallel,'0'
3.490655375000000,Simple Parallel,'0'
3.491173000000000,Simple Parallel,'1'
3.491690750000000,Simple Parallel,'1'
3.492208375000000,Simple Parallel,'0'
3.492726500000000,Simple Parallel,'1'
5.263833000000000,Simple Parallel,'0'
5.264350625000000,Simple Parallel,'1'
5.264868375000000,Simple Parallel,'0'
5.265386250000000,Simple Parallel,'1'
5.265903875000000,Simple Parallel,'0'
5.266421625000000,Simple Parallel,'0'
5.266939375000000,Simple Parallel,'0'
5.267457625000000,Simple Parallel,'0'
5.267974875000000,Simple Parallel,'0'
5.268492625000000,Simple Parallel,'0'
5.269010250000000,Simple Parallel,'0'
5.269528125000000,Simple Parallel,'0'
5.270045750000000,Simple Parallel,'0'
5.270563500000000,Simple Parallel,'0'
5.271081250000000,Simple Parallel,'1'
5.271599625000000,Simple Parallel,'1'
5.272116750000000,Simple Parallel,'0'
5.272634500000000,Simple Parallel,'0'
5.273152375000000,Simple Parallel,'0'
5.273670000000000,Simple Parallel,'1'
5.274187750000000,Simple Parallel,'0'
5.274705500000000,Simple Parallel,'0'
5.275223250000000,Simple Parallel,'1'
5.275741500000000,Simple Parallel,'0'
5.276258750000000,Simple Parallel,'0'
5.276776500000000,Simple Parallel,'1'
5.277294250000000,Simple Parallel,'1'
5.277812000000000,Simple Parallel,'0'
5.278329750000000,Simple Parallel,'0'
5.278847500000000,Simple Parallel,'1'
5.279365250000000,Simple Parallel,'0'
5.279883250000000,Simple Parallel,'1'
5.280400625000000,Simple Parallel,'0'
5.280926250000000,Simple Parallel,'0'
5.281435875000000,Simple Parallel,'0'
5.281953625000000,Simple Parallel,'0'
5.282471250000000,Simple Parallel,'1'
5.282989000000000,Simple Parallel,'1'
5.283506625000000,Simple Parallel,'0'
5.284024875000000,Simple Parallel,'1'
5.359156125000000,Simple Parallel,'0'
5.359673875000000,Simple Parallel,'1'
5.360191500000000,Simple Parallel,'0'
5.360709250000000,Simple Parallel,'0'
5.361226875000000,Simple Parallel,'0'
5.361744625000000,Simple Parallel,'0'
5.362262250000000,Simple Parallel,'1'
5.362780375000000,Simple Parallel,'0'
5.363297625000000,Simple Parallel,'0'
5.363815375000000,Simple Parallel,'0'
5.364333125000000,Simple Parallel,'0'
5.364850750000000,Simple Parallel,'1'
5.365368500000000,Simple Parallel,'0'
5.365886250000000,Simple Parallel,'0'
5.366403875000000,Simple Parallel,'1'
5.366922000000000,Simple Parallel,'0'
5.367439250000000,Simple Parallel,'1'
5.367956875000000,Simple Parallel,'1'
5.368474625000000,Simple Parallel,'0'
5.368992250000000,Simple Parallel,'0'
5.369510000000000,Simple Parallel,'0'
5.370027625000000,Simple Parallel,'0'
5.370545375000000,Simple Parallel,'0'
5.371063375000000,Simple Parallel,'1'
5.371580625000000,Simple Parallel,'0'
5.372098250000000,Simple Parallel,'0'
5.372616000000000,Simple Parallel,'0'
5.373133625000000,Simple Parallel,'1'
5.373651250000000,Simple Parallel,'0'
5.374169000000000,Simple Parallel,'1'
5.374686625000000,Simple Parallel,'0'
5.375204750000000,Simple Parallel,'1'
5.375722000000000,Simple Parallel,'0'
5.376245750000000,Simple Parallel,'0'
5.376757375000000,Simple Parallel,'0'
5.377275000000000,Simple Parallel,'0'
5.377792625000000,Simple Parallel,'1'
5.378310250000000,Simple Parallel,'1'
5.378828000000000,Simple Parallel,'0'
5.379346000000000,Simple Parallel,'1'
5.458447500000000,Simple Parallel,'0'
5.458965125000000,Simple Parallel,'1'
5.459483000000000,Simple Parallel,'0'
5.460000500000000,Simple Parallel,'0'
5.460518125000000,Simple Parallel,'0'
5.461035875000000,Simple Parallel,'0'
5.461553625000000,Simple Parallel,'0'
5.462071750000000,Simple Parallel,'1'
5.462589000000000,Simple Parallel,'0'
5.463106625000000,Simple Parallel,'0'
5.463624375000000,Simple Parallel,'0'
5.464142125000000,Simple Parallel,'1'
5.464659750000000,Simple Parallel,'0'
5.465177500000000,Simple Parallel,'0'
5.465695375000000,Simple Parallel,'1'
5.466213375000000,Simple Parallel,'0'
5.466730625000000,Simple Parallel,'1'
5.467248500000000,Simple Parallel,'1'
5.467766250000000,Simple Parallel,'0'
5.468283875000000,Simple Parallel,'0'
5.468801625000000,Simple Parallel,'0'
5.469319375000000,Simple Parallel,'1'
5.469837250000000,Simple Parallel,'0'
5.470355250000000,Simple Parallel,'1'
5.470872500000000,Simple Parallel,'0'
5.471390250000000,Simple Parallel,'0'
5.471908000000000,Simple Parallel,'0'
5.472425750000000,Simple Parallel,'1'
5.472943500000000,Simple Parallel,'1'
5.473461250000000,Simple Parallel,'0'
5.473978875000000,Simple Parallel,'0'
5.474497125000000,Simple Parallel,'0'
5.475014500000000,Simple Parallel,'0'
5.475538250000000,Simple Parallel,'0'
5.476049875000000,Simple Parallel,'0'
5.476567625000000,Simple Parallel,'0'
5.477085375000000,Simple Parallel,'1'
5.477603125000000,Simple Parallel,'1'
5.478121000000000,Simple Parallel,'0'
5.478639000000000,Simple Parallel,'1'
7.249722750000000,Simple Parallel,'0'
7.250240500000000,Simple Parallel,'1'
7.250758125000000,Simple Parallel,'0'
7.251275875000000,Simple Parallel,'1'
7.251793625000000,Simple Parallel,'0'
7.252311375000000,Simple Parallel,'0'
7.252829125000000,Simple Parallel,'0'
7.253347250000000,Simple Parallel,'0'
7.253864500000000,Simple Parallel,'0'
7.254382375000000,Simple Parallel,'0'
7.254900000000000,Simple Parallel,'0'
7.255417750000000,Simple Parallel,'0'
7.255935375000000,Simple Parallel,'0'
7.256453125000000,Simple Parallel,'0'
7.256970875000000,Simple Parallel,'1'
7.257488875000000,Simple Parallel,'1'
7.258006250000000,Simple Parallel,'0'
7.258523875000000,Simple Parallel,'0'
7.259041625000000,Simple Parallel,'0'
7.259559250000000,Simple Parallel,'1'
7.260077000000000,Simple Parallel,'0'
7.260594750000000,Simple Parallel,'0'
7.261112250000000,Simple Parallel,'1'
7.261630375000000,Simple Parallel,'0'
7.262147625000000,Simple Parallel,'0'
7.262665375000000,Simple Parallel,'1'
7.263183000000000,Simple Parallel,'1'
7.263700625000000,Simple Parallel,'0'
7.264218250000000,Simple Parallel,'0'
7.264736000000000,Simple Parallel,'1'
7.265253750000000,Simple Parallel,'0'
7.265771875000000,Simple Parallel,'1'
7.266289125000000,Simple Parallel,'0'
7.266814875000000,Simple Parallel,'0'
7.267324500000000,Simple Parallel,'0'
7.267842125000000,Simple Parallel,'0'
7.268359875000000,Simple Parallel,'1'
7.268877500000000,Simple Parallel,'1'
7.269395250000000,Simple Parallel,'0'
7.269913375000000,Simple Parallel,'1'
7.345047375000000,Simple Parallel,'0'
7.345565125000000,Simple Parallel,'1'
7.346083000000000,Simple Parallel,'0'
7.346600625000000,Simple Parallel,'0'
7.347118250000000,Simple Parallel,'0'
7.347636000000000,Simple Parallel,'0'
7.348153750000000,Simple Parallel,'1'
7.348671875000000,Simple Parallel,'0'
7.349189125000000,Simple Parallel,'0'
7.349706750000000,Simple Parallel,'0'
7.350224500000000,Simple Parallel,'0'
7.350742250000000,Simple Parallel,'1'
7.351259875000000,Simple Parallel,'0'
7.351777500000000,Simple Parallel,'0'
7.352295250000000,Simple Parallel,'1'
7.352813375000000,Simple Parallel,'0'
7.353330625000000,Simple Parallel,'1'
7.353848250000000,Simple Parallel,'1'
7.354365875000000,Simple Parallel,'0'
7.354883500000000,Simple Parallel,'0'
7.355401375000000,Simple Parallel,'0'
7.355918875000000,Simple Parallel,'0'
7.356436625000000,Simple Parallel,'0'
7.356954625000000,Simple Parallel,'1'
7.357471875000000,Simple Parallel,'0'
7.357989625000000,Simple Parallel,'0'
7.358507375000000,Simple Parallel,'0'
7.359025000000000,Simple Parallel,'1'
7.359542625000000,Simple Parallel,'0'
7.360060375000000,Simple Parallel,'1'
7.360578000000000,Simple Parallel,'0'
7.361096125000000,Simple Parallel,'1'
7.361613375000000,Simple Parallel,'0'
7.362137000000000,Simple Parallel,'0'
7.362648750000000,Simple Parallel,'0'
7.363166375000000,Simple Parallel,'0'
7.363684125000000,Simple Parallel,'1'
7.364201875000000,Simple Parallel,'1'
7.364719500000000,Simple Parallel,'0'
7.365237750000000,Simple Parallel,'1'
7.444339125000000,Simple Parallel,'0'
7.444856750000000,Simple Parallel,'1'
7.445374375000000,Simple Parallel,'0'
7.445892000000000,Simple Parallel,'0'
7.446409625000000,Simple Parallel,'0'
7.446927250000000,Simple Parallel,'0'
7.447445000000000,Simple Parallel,'0'
7.447963125000000,Simple Parallel,'1'
7.448480375000000,Simple Parallel,'0'
7.448998000000000,Simple Parallel,'0'
7.449515750000000,Simple Parallel,'0'
7.450033375000000,Simple Parallel,'1'
7.450551125000000,Simple Parallel,'0'
7.451068875000000,Simple Parallel,'0'
7.451586750000000,Simple Parallel,'1'
7.452104750000000,Simple Parallel,'0'
7.452622000000000,Simple Parallel,'1'
7.453139750000000,Simple Parallel,'1'
7.453657375000000,Simple Parallel,'0'
7.454175125000000,Simple Parallel,'1'
7.454692750000000,Simple Parallel,'0'
7.455210500000000,Simple Parallel,'1'
7.455728125000000,Simple Parallel,'0'
7.456246250000000,Simple Parallel,'0'
7.456763375000000,Simple Parallel,'0'
7.457281125000000,Simple Parallel,'0'
7.457798750000000,Simple Parallel,'1'
7.458316500000000,Simple Parallel,'0'
7.458834125000000,Simple Parallel,'0'
7.459351875000000,Simple Parallel,'1'
7.459869375000000,Simple Parallel,'1'
7.460387500000000,Simple Parallel,'1'
7.460904750000000,Simple Parallel,'0'
7.461428375000000,Simple Parallel,'0'
7.461940125000000,Simple Parallel,'0'
7.462457750000000,Simple Parallel,'0'
7.462975375000000,Simple Parallel,'1'
7.463493125000000,Simple Parallel,'1'
7.464010750000000,Simple Parallel,'0'
7.464528875000000,Simple Parallel,'1'
9.235559374999999,Simple Parallel,'0'
9.236077125000000,Simple Parallel,'1'
9.236594999999999,Simple Parallel,'0'
9.237112750000000,Simple Parallel,'1'
9.237630500000000,Simple Parallel,'0'
9.238148125000000,Simple Parallel,'0'
9.238665875000001,Simple Parallel,'0'
9.239184000000000,Simple Parallel,'0'
9.239701250000000,Simple Parallel,'0'
9.240219000000000,Simple Parallel,'0'
9.240736750000000,Simple Parallel,'0'
9.241254375000000,Simple Parallel,'0'
9.241772125000001,Simple Parallel,'0'
9.242289749999999,Simple Parallel,'0'
9.242807375000000,Simple Parallel,'1'
9.243325499999999,Simple Parallel,'1'
9.243842875000000,Simple Parallel,'0'
9.244360625000001,Simple Parallel,'0'
9.244878249999999,Simple Parallel,'0'
9.245396000000000,Simple Parallel,'1'
9.245913750000000,Simple Parallel,'0'
9.246431500000000,Simple Parallel,'0'
9.246949125000000,Simple Parallel,'1'
9.247467250000000,Simple Parallel,'0'
9.247984499999999,Simple Parallel,'0'
9.248502374999999,Simple Parallel,'1'
9.249019875000000,Simple Parallel,'1'
9.249537500000001,Simple Parallel,'0'
9.250055250000001,Simple Parallel,'0'
9.250572999999999,Simple Parallel,'1'
9.251090625000000,Simple Parallel,'0'
9.251608875000001,Simple Parallel,'1'
9.252126125000000,Simple Parallel,'0'
9.252651875000000,Simple Parallel,'0'
9.253161499999999,Simple Parallel,'0'
9.253679249999999,Simple Parallel,'0'
9.254196875000000,Simple Parallel,'1'
9.254714625000000,Simple Parallel,'1'
9.255232375000000,Simple Parallel,'0'
9.255750500000000,Simple Parallel,'1'
9.330882250000000,Simple Parallel,'0'
9.331400000000000,Simple Parallel,'1'
9.331917750000001,Simple Parallel,'0'
9.332435500000001,Simple Parallel,'0'
9.332953249999999,Simple Parallel,'0'
